T1A58 15722:186 SEGGER J-Link V6.32i Log File (0001ms, 3901ms total)
T1A58 15722:186 DLL Compiled: Jul 24 2018 15:19:55 (0001ms, 3901ms total)
T1A58 15722:186 Logging started @ 2019-07-24 22:53 (0001ms, 3901ms total)
T1A58 15722:187 JLINK_SetWarnOutHandler(...) (0000ms, 3901ms total)
T1A58 15722:187 JLINK_OpenEx(...)
Firmware: J-Link V9 compiled Apr 20 2018 16:47:26
Hardware: V9.20
Feature(s): RDI, GDB, FlashDL, FlashBP, JFlash
TELNET listener socket opened on port 19021WEBSRV 
Starting webserver (0027ms, 3928ms total)
T1A58 15722:187 WEBSRV Webserver running on local port 19080 (0027ms, 3928ms total)
T1A58 15722:187   returns O.K. (0027ms, 3928ms total)
T1A58 15722:214 JLINK_GetEmuCaps()  returns 0xB9FF7BBF (0000ms, 3928ms total)
T1A58 15722:215 JLINK_TIF_GetAvailable(...) (0000ms, 3928ms total)
T1A58 15722:215 JLINK_SetErrorOutHandler(...) (0000ms, 3928ms total)
T1A58 15722:215 JLINK_ExecCommand("ProjectFile = "E:\MyPrj\Tmy\TmyV01\Project\MDK-ARM(uV4)\JLinkSettings.ini"", ...).   returns 0x00 (0007ms, 3935ms total)
T1A58 15722:239 JLINK_ExecCommand("Device = STM32F103RE", ...). Device "STM32F103RE" selected.  returns 0x00 (0019ms, 3954ms total)
T1A58 15722:259 JLINK_ExecCommand("DisableConnectionTimeout", ...).   returns 0x01 (0000ms, 3954ms total)
T1A58 15722:259 JLINK_GetHardwareVersion()  returns 0x16760 (0000ms, 3954ms total)
T1A58 15722:259 JLINK_GetDLLVersion()  returns 63209 (0000ms, 3954ms total)
T1A58 15722:259 JLINK_GetFirmwareString(...) (0000ms, 3954ms total)
T1A58 15722:358 JLINK_GetDLLVersion()  returns 63209 (0000ms, 3954ms total)
T1A58 15722:358 JLINK_GetCompileDateTime() (0000ms, 3954ms total)
T1A58 15722:393 JLINK_GetFirmwareString(...) (0000ms, 3954ms total)
T1A58 15722:410 JLINK_GetHardwareVersion()  returns 0x16760 (0000ms, 3954ms total)
T1A58 15722:475 JLINK_TIF_Select(JLINKARM_TIF_SWD)  returns 0x00 (0001ms, 3955ms total)
T1A58 15722:477 JLINK_SetSpeed(5000) (0000ms, 3956ms total)
T1A58 15722:477 JLINK_GetId() >0x10B TIF>Found SW-DP with ID 0x1BA01477 >0x0D TIF> >0x28 TIF> >0x0D TIF> >0x28 TIF> >0x0D TIF> >0x28 TIF> >0x0D TIF> >0x28 TIF> >0x0D TIF> >0x21 TIF> >0x0D TIF> >0x28 TIF> >0x0D TIF> >0x28 TIF> >0x0D TIF> >0x28 TIF> >0x0D TIF> >0x21 TIF> >0x0D TIF> >0x21 TIF> >0x0D TIF> >0x28 TIF> >0x0D TIF> >0x21 TIF> >0x0D TIF> >0x21 TIF> >0x0D TIF> >0x28 TIF> >0x0D TIF> >0x28 TIF> >0x0D TIF> >0x28 TIF> >0x0D TIF> >0x21 TIF> >0x0D TIF> >0x21 TIF> >0x0D TIF> >0x28 TIF> >0x0D TIF>
 >0x21 TIF> >0x0D TIF> >0x21 TIF> >0x0D TIF> >0x28 TIF> >0x0D TIF> >0x21 TIF> >0x0D TIF> >0x21 TIF> >0x0D TIF> >0x28 TIF> >0x0D TIF> >0x21 TIF> >0x0D TIF> >0x21 TIF> >0x0D TIF> >0x28 TIF> >0x0D TIF> >0x21 TIF> >0x0D TIF> >0x21 TIF> >0x10B TIF>Found SW-DP with ID 0x1BA01477 >0x0D TIF> >0x28 TIF> >0x0D TIF> >0x28 TIF> >0x0D TIF> >0x28 TIF> >0x0D TIF> >0x28 TIF> >0x0D TIF> >0x21 TIF> >0x0D TIF> >0x28 TIF>Scanning AP map to find all available APs >0x0D TIF> >0x28 TIF> >0x0D TIF> >0x21 TIF> >0x0D TIF>
 >0x21 TIF> >0x0D TIF> >0x28 TIF> >0x0D TIF> >0x21 TIF> >0x0D TIF> >0x21 TIF>AP[1]: Stopped AP scan as end of AP map has been reachedAP[0]: AHB-AP (IDR: 0x14770011)Iterating through AP map to find AHB-AP to use >0x42 TIF> >0x28 TIF> >0x0D TIF> >0x28 TIF> >0x0D TIF> >0x21 TIF> >0x0D TIF> >0x21 TIF> >0x42 TIF> >0x28 TIF> >0x0D TIF> >0x28 TIF> >0x0D TIF> >0x28 TIF> >0x0D TIF> >0x21 TIF> >0x0D TIF> >0x21 TIF>AP[0]: Core foundAP[0]: AHB-AP ROM base: 0xE00FF000 >0x0D TIF> >0x28 TIF> >0x0D TIF> >0x28 TIF>
 >0x0D TIF> >0x28 TIF> >0x0D TIF> >0x21 TIF> >0x0D TIF> >0x21 TIF>CPUID register: 0x411FC231. Implementer code: 0x41 (ARM)Found Cortex-M3 r1p1, Little endian. -- Max. mem block: 0x00010F28 -- CPU_ReadMem(4 bytes @ 0xE000EDF0) -- CPU_WriteMem(4 bytes @ 0xE000EDF0) -- CPU_ReadMem(4 bytes @ 0xE0002000)FPUnit: 6 code (BP) slots and 2 literal slots -- CPU_ReadMem(4 bytes @ 0xE000EDFC) -- CPU_ReadMem(4 bytes @ 0xE0001000) -- CPU_WriteMem(4 bytes @ 0xE0001000) -- CPU_ReadMem(4 bytes @ 0xE000ED88)
 -- CPU_WriteMem(4 bytes @ 0xE000ED88) -- CPU_ReadMem(4 bytes @ 0xE000ED88) -- CPU_WriteMem(4 bytes @ 0xE000ED88)CoreSight components:ROMTbl[0] @ E00FF000 -- CPU_ReadMem(16 bytes @ 0xE00FF000) -- CPU_ReadMem(16 bytes @ 0xE000EFF0) -- CPU_ReadMem(16 bytes @ 0xE000EFE0)ROMTbl[0][0]: E000E000, CID: B105E00D, PID: 001BB000 SCS -- CPU_ReadMem(16 bytes @ 0xE0001FF0) -- CPU_ReadMem(16 bytes @ 0xE0001FE0)ROMTbl[0][1]: E0001000, CID: B105E00D, PID: 001BB002 DWT -- CPU_ReadMem(16 bytes @ 0xE0002FF0)
 -- CPU_ReadMem(16 bytes @ 0xE0002FE0)ROMTbl[0][2]: E0002000, CID: B105E00D, PID: 000BB003 FPB -- CPU_ReadMem(16 bytes @ 0xE0000FF0) -- CPU_ReadMem(16 bytes @ 0xE0000FE0)ROMTbl[0][3]: E0000000, CID: B105E00D, PID: 001BB001 ITM -- CPU_ReadMem(16 bytes @ 0xE00FF010) -- CPU_ReadMem(16 bytes @ 0xE0040FF0) -- CPU_ReadMem(16 bytes @ 0xE0040FE0)ROMTbl[0][4]: E0040000, CID: B105900D, PID: 001BB923 TPIU-Lite -- CPU_ReadMem(16 bytes @ 0xE0041FF0) -- CPU_ReadMem(16 bytes @ 0xE0041FE0)
ROMTbl[0][5]: E0041000, CID: B105900D, PID: 101BB924 ETM-M3 >0x0D TIF> >0x21 TIF>  returns 0x1BA01477 (0409ms, 4365ms total)
T1A58 15722:886 JLINK_GetDLLVersion()  returns 63209 (0000ms, 4365ms total)
T1A58 15722:886 JLINK_CORE_GetFound()  returns 0x30000FF (0000ms, 4365ms total)
T1A58 15722:886 JLINK_GetDebugInfo(0x100 = JLINKARM_ROM_TABLE_ADDR_INDEX) -- Value=0xE00FF000  returns 0x00 (0000ms, 4365ms total)
T1A58 15722:902 JLINK_GetDebugInfo(0x100 = JLINKARM_ROM_TABLE_ADDR_INDEX) -- Value=0xE00FF000  returns 0x00 (0000ms, 4365ms total)
T1A58 15722:902 JLINK_GetDebugInfo(0x101 = JLINKARM_DEBUG_INFO_ETM_ADDR_INDEX) -- Value=0xE0041000  returns 0x00 (0001ms, 4366ms total)
T1A58 15722:903 JLINK_ReadMemEx(0xE0041FD0, 0x0020 Bytes, ..., Flags = 0x02000004) -- CPU_ReadMem(32 bytes @ 0xE0041FD0) - Data: 04 00 00 00 00 00 00 00 00 00 00 00 00 00 00 00 ...  returns 0x20 (0000ms, 4366ms total)
T1A58 15722:903 JLINK_GetDebugInfo(0x102 = JLINKARM_DEBUG_INFO_MTB_ADDR_INDEX) -- Value=0x00000000  returns 0x00 (0000ms, 4366ms total)
T1A58 15722:903 JLINK_GetDebugInfo(0x103 = JLINKARM_DEBUG_INFO_TPIU_ADDR_INDEX) -- Value=0xE0040000  returns 0x00 (0000ms, 4366ms total)
T1A58 15722:903 JLINK_GetDebugInfo(0x104 = JLINKARM_DEBUG_INFO_ITM_ADDR_INDEX) -- Value=0xE0000000  returns 0x00 (0000ms, 4366ms total)
T1A58 15722:903 JLINK_GetDebugInfo(0x105 = JLINKARM_DEBUG_INFO_DWT_ADDR_INDEX) -- Value=0xE0001000  returns 0x00 (0000ms, 4366ms total)
T1A58 15722:903 JLINK_GetDebugInfo(0x106 = JLINKARM_DEBUG_INFO_FPB_ADDR_INDEX) -- Value=0xE0002000  returns 0x00 (0000ms, 4366ms total)
T1A58 15722:903 JLINK_GetDebugInfo(0x107 = JLINKARM_DEBUG_INFO_NVIC_ADDR_INDEX) -- Value=0xE000E000  returns 0x00 (0001ms, 4367ms total)
T1A58 15722:904 JLINK_GetDebugInfo(0x10C = JLINKARM_DEBUG_INFO_DBG_ADDR_INDEX) -- Value=0xE000EDF0  returns 0x00 (0000ms, 4367ms total)
T1A58 15722:904 JLINK_GetDebugInfo(0x01 = Unknown) -- Value=0x00000000  returns 0x00 (0000ms, 4367ms total)
T1A58 15722:904 JLINK_ReadMemU32(0xE000ED00, 0x0001 Items, ...) -- CPU_ReadMem(4 bytes @ 0xE000ED00) - Data: 31 C2 1F 41  returns 0x01 (0000ms, 4367ms total)
T1A58 15722:905 JLINK_GetDebugInfo(0x10F = JLINKARM_DEBUG_INFO_HAS_CORTEX_M_SECURITY_EXT_INDEX) -- Value=0x00000000  returns 0x00 (0000ms, 4367ms total)
T1A58 15722:905 JLINK_SetResetType(JLINKARM_CM3_RESET_TYPE_NORMAL)  returns JLINKARM_CM3_RESET_TYPE_NORMAL (0000ms, 4367ms total)
T1A58 15722:905 JLINK_Reset() -- CPU is running -- CPU_WriteMem(4 bytes @ 0xE000EDF0) -- CPU is running -- CPU_WriteMem(4 bytes @ 0xE000EDFC)Reset: Halt core after reset via DEMCR.VC_CORERESET. >0x35 TIF>Reset: Reset device via AIRCR.SYSRESETREQ. -- CPU is running -- CPU_WriteMem(4 bytes @ 0xE000ED0C) >0x0D TIF> >0x28 TIF> -- CPU_ReadMem(4 bytes @ 0xE000EDF0) -- CPU_ReadMem(4 bytes @ 0xE000EDF0) -- CPU is running -- CPU_WriteMem(4 bytes @ 0xE000EDF0) -- CPU is running
 -- CPU_WriteMem(4 bytes @ 0xE000EDFC) -- CPU_ReadMem(4 bytes @ 0xE000EDF0) -- CPU_WriteMem(4 bytes @ 0xE0002000) -- CPU_ReadMem(4 bytes @ 0xE000EDFC) -- CPU_ReadMem(4 bytes @ 0xE0001000) (0091ms, 4458ms total)
T1A58 15722:996 JLINK_Halt()  returns 0x00 (0000ms, 4458ms total)
T1A58 15722:996 JLINK_ReadMemU32(0xE000EDF0, 0x0001 Items, ...) -- CPU_ReadMem(4 bytes @ 0xE000EDF0) - Data: 03 00 03 00  returns 0x01 (0001ms, 4459ms total)
T1A58 15722:997 JLINK_WriteU32(0xE000EDF0, 0xA05F0003) -- CPU_WriteMem(4 bytes @ 0xE000EDF0)  returns 0x00 (0000ms, 4459ms total)
T1A58 15722:997 JLINK_WriteU32(0xE000EDFC, 0x01000000) -- CPU_WriteMem(4 bytes @ 0xE000EDFC)  returns 0x00 (0001ms, 4460ms total)
T1A58 15723:048 JLINK_GetHWStatus(...)  returns 0x00 (0001ms, 4461ms total)
T1A58 15723:086 JLINK_GetNumBPUnits(Type = 0xFFFFFF00)  returns 0x06 (0000ms, 4461ms total)
T1A58 15723:086 JLINK_GetNumBPUnits(Type = 0xF0)  returns 0x2000 (0000ms, 4461ms total)
T1A58 15723:086 JLINK_GetNumWPUnits()  returns 0x04 (0000ms, 4461ms total)
T1A58 15723:128 JLINK_GetSpeed()  returns 0xFA0 (0000ms, 4461ms total)
T1A58 15723:147 JLINK_ReadMemU32(0xE000E004, 0x0001 Items, ...) -- CPU_ReadMem(4 bytes @ 0xE000E004) - Data: 01 00 00 00  returns 0x01 (0001ms, 4462ms total)
T1A58 15723:148 JLINK_ReadMemU32(0xE000E004, 0x0001 Items, ...) -- CPU_ReadMem(4 bytes @ 0xE000E004) - Data: 01 00 00 00  returns 0x01 (0000ms, 4462ms total)
T1A58 15723:148 JLINK_WriteMemEx(0xE0001000, 0x001C Bytes, ..., Flags = 0x02000004) - Data: 01 00 00 00 00 00 00 00 00 00 00 00 00 00 00 00 ... -- CPU_WriteMem(28 bytes @ 0xE0001000)  returns 0x1C (0002ms, 4464ms total)
T1A58 15723:150 JLINK_Halt()  returns 0x00 (0000ms, 4464ms total)
T1A58 15723:150 JLINK_IsHalted()  returns TRUE (0000ms, 4464ms total)
T1A58 15723:160 JLINK_WriteMem(0x20000000, 0x0164 Bytes, ...) - Data: 00 BE 0A E0 0D 78 2D 06 68 40 08 24 40 00 00 D3 ... -- CPU_WriteMem(356 bytes @ 0x20000000)  returns 0x164 (0003ms, 4467ms total)
T1A58 15723:163 JLINK_WriteReg(R0, 0x08000000)  returns 0x00 (0000ms, 4467ms total)
T1A58 15723:163 JLINK_WriteReg(R1, 0x00B71B00)  returns 0x00 (0000ms, 4467ms total)
T1A58 15723:163 JLINK_WriteReg(R2, 0x00000001)  returns 0x00 (0000ms, 4467ms total)
T1A58 15723:163 JLINK_WriteReg(R3, 0x00000000)  returns 0x00 (0000ms, 4467ms total)
T1A58 15723:163 JLINK_WriteReg(R4, 0x00000000)  returns 0x00 (0000ms, 4467ms total)
T1A58 15723:163 JLINK_WriteReg(R5, 0x00000000)  returns 0x00 (0000ms, 4467ms total)
T1A58 15723:163 JLINK_WriteReg(R6, 0x00000000)  returns 0x00 (0001ms, 4468ms total)
T1A58 15723:164 JLINK_WriteReg(R7, 0x00000000)  returns 0x00 (0000ms, 4468ms total)
T1A58 15723:164 JLINK_WriteReg(R8, 0x00000000)  returns 0x00 (0000ms, 4468ms total)
T1A58 15723:164 JLINK_WriteReg(R9, 0x20000160)  returns 0x00 (0000ms, 4468ms total)
T1A58 15723:164 JLINK_WriteReg(R10, 0x00000000)  returns 0x00 (0000ms, 4468ms total)
T1A58 15723:164 JLINK_WriteReg(R11, 0x00000000)  returns 0x00 (0000ms, 4468ms total)
T1A58 15723:164 JLINK_WriteReg(R12, 0x00000000)  returns 0x00 (0000ms, 4468ms total)
T1A58 15723:164 JLINK_WriteReg(R13 (SP), 0x20001000)  returns 0x00 (0000ms, 4468ms total)
T1A58 15723:164 JLINK_WriteReg(R14, 0x20000001)  returns 0x00 (0000ms, 4468ms total)
T1A58 15723:164 JLINK_WriteReg(R15 (PC), 0x20000038)  returns 0x00 (0000ms, 4468ms total)
T1A58 15723:164 JLINK_WriteReg(XPSR, 0x01000000)  returns 0x00 (0000ms, 4468ms total)
T1A58 15723:164 JLINK_WriteReg(MSP, 0x20001000)  returns 0x00 (0000ms, 4468ms total)
T1A58 15723:164 JLINK_WriteReg(PSP, 0x20001000)  returns 0x00 (0000ms, 4468ms total)
T1A58 15723:164 JLINK_WriteReg(CFBP, 0x00000000)  returns 0x00 (0000ms, 4468ms total)
T1A58 15723:164 JLINK_SetBPEx(Addr = 0x20000000, Type = 0xFFFFFFF2) -- CPU_ReadMem(2 bytes @ 0x20000000)  returns 0x00000001 (0001ms, 4469ms total)
T1A58 15723:165 JLINK_Go() -- CPU_WriteMem(2 bytes @ 0x20000000) -- CPU_ReadMem(4 bytes @ 0xE0001000) -- CPU_WriteMem(4 bytes @ 0xE0002008) -- CPU_WriteMem(4 bytes @ 0xE000200C) -- CPU_WriteMem(4 bytes @ 0xE0002010) -- CPU_WriteMem(4 bytes @ 0xE0002014) -- CPU_WriteMem(4 bytes @ 0xE0002018) -- CPU_WriteMem(4 bytes @ 0xE000201C) -- CPU_WriteMem(4 bytes @ 0xE0001004) (0003ms, 4472ms total)
T1A58 15723:168 JLINK_IsHalted() -- CPU_ReadMem(2 bytes @ 0x20000000)  returns TRUE (0003ms, 4475ms total)
T1A58 15723:171 JLINK_ReadReg(R15 (PC))  returns 0x20000000 (0000ms, 4472ms total)
T1A58 15723:171 JLINK_ClrBPEx(BPHandle = 0x00000001)  returns 0x00 (0000ms, 4472ms total)
T1A58 15723:171 JLINK_ReadReg(R0)  returns 0x00000000 (0000ms, 4472ms total)
T1A58 15723:173 JLINK_WriteReg(R0, 0x08000000)  returns 0x00 (0000ms, 4472ms total)
T1A58 15723:173 JLINK_WriteReg(R1, 0x00B71B00)  returns 0x00 (0000ms, 4472ms total)
T1A58 15723:173 JLINK_WriteReg(R2, 0x00000001)  returns 0x00 (0000ms, 4472ms total)
T1A58 15723:173 JLINK_WriteReg(R3, 0x00000000)  returns 0x00 (0000ms, 4472ms total)
T1A58 15723:173 JLINK_WriteReg(R4, 0x00000000)  returns 0x00 (0000ms, 4472ms total)
T1A58 15723:173 JLINK_WriteReg(R5, 0x00000000)  returns 0x00 (0000ms, 4472ms total)
T1A58 15723:173 JLINK_WriteReg(R6, 0x00000000)  returns 0x00 (0000ms, 4472ms total)
T1A58 15723:173 JLINK_WriteReg(R7, 0x00000000)  returns 0x00 (0000ms, 4472ms total)
T1A58 15723:173 JLINK_WriteReg(R8, 0x00000000)  returns 0x00 (0001ms, 4473ms total)
T1A58 15723:174 JLINK_WriteReg(R9, 0x20000160)  returns 0x00 (0000ms, 4473ms total)
T1A58 15723:174 JLINK_WriteReg(R10, 0x00000000)  returns 0x00 (0000ms, 4473ms total)
T1A58 15723:174 JLINK_WriteReg(R11, 0x00000000)  returns 0x00 (0000ms, 4473ms total)
T1A58 15723:174 JLINK_WriteReg(R12, 0x00000000)  returns 0x00 (0000ms, 4473ms total)
T1A58 15723:174 JLINK_WriteReg(R13 (SP), 0x20001000)  returns 0x00 (0000ms, 4473ms total)
T1A58 15723:174 JLINK_WriteReg(R14, 0x20000001)  returns 0x00 (0000ms, 4473ms total)
T1A58 15723:174 JLINK_WriteReg(R15 (PC), 0x2000007C)  returns 0x00 (0000ms, 4473ms total)
T1A58 15723:174 JLINK_WriteReg(XPSR, 0x01000000)  returns 0x00 (0000ms, 4473ms total)
T1A58 15723:174 JLINK_WriteReg(MSP, 0x20001000)  returns 0x00 (0000ms, 4473ms total)
T1A58 15723:174 JLINK_WriteReg(PSP, 0x20001000)  returns 0x00 (0000ms, 4473ms total)
T1A58 15723:174 JLINK_WriteReg(CFBP, 0x00000000)  returns 0x00 (0000ms, 4473ms total)
T1A58 15723:174 JLINK_SetBPEx(Addr = 0x20000000, Type = 0xFFFFFFF2)  returns 0x00000002 (0000ms, 4473ms total)
T1A58 15723:174 JLINK_Go() -- CPU_ReadMem(4 bytes @ 0xE0001000) (0002ms, 4475ms total)
T1A58 15723:176 JLINK_IsHalted()  returns FALSE (0000ms, 4475ms total)
T1A58 15723:351 JLINK_IsHalted() -- CPU_ReadMem(2 bytes @ 0x20000000)  returns TRUE (0002ms, 4477ms total)
T1A58 15723:353 JLINK_ReadReg(R15 (PC))  returns 0x20000000 (0000ms, 4475ms total)
T1A58 15723:353 JLINK_ClrBPEx(BPHandle = 0x00000002)  returns 0x00 (0000ms, 4475ms total)
T1A58 15723:353 JLINK_ReadReg(R0)  returns 0x00000000 (0000ms, 4475ms total)
T1A58 15723:408 JLINK_WriteReg(R0, 0x00000001)  returns 0x00 (0000ms, 4475ms total)
T1A58 15723:408 JLINK_WriteReg(R1, 0x00B71B00)  returns 0x00 (0000ms, 4475ms total)
T1A58 15723:408 JLINK_WriteReg(R2, 0x00000001)  returns 0x00 (0000ms, 4475ms total)
T1A58 15723:408 JLINK_WriteReg(R3, 0x00000000)  returns 0x00 (0001ms, 4476ms total)
T1A58 15723:409 JLINK_WriteReg(R4, 0x00000000)  returns 0x00 (0000ms, 4476ms total)
T1A58 15723:409 JLINK_WriteReg(R5, 0x00000000)  returns 0x00 (0000ms, 4476ms total)
T1A58 15723:409 JLINK_WriteReg(R6, 0x00000000)  returns 0x00 (0000ms, 4476ms total)
T1A58 15723:409 JLINK_WriteReg(R7, 0x00000000)  returns 0x00 (0000ms, 4476ms total)
T1A58 15723:409 JLINK_WriteReg(R8, 0x00000000)  returns 0x00 (0000ms, 4476ms total)
T1A58 15723:409 JLINK_WriteReg(R9, 0x20000160)  returns 0x00 (0000ms, 4476ms total)
T1A58 15723:409 JLINK_WriteReg(R10, 0x00000000)  returns 0x00 (0000ms, 4476ms total)
T1A58 15723:409 JLINK_WriteReg(R11, 0x00000000)  returns 0x00 (0000ms, 4476ms total)
T1A58 15723:409 JLINK_WriteReg(R12, 0x00000000)  returns 0x00 (0000ms, 4476ms total)
T1A58 15723:409 JLINK_WriteReg(R13 (SP), 0x20001000)  returns 0x00 (0000ms, 4476ms total)
T1A58 15723:409 JLINK_WriteReg(R14, 0x20000001)  returns 0x00 (0000ms, 4476ms total)
T1A58 15723:409 JLINK_WriteReg(R15 (PC), 0x2000006A)  returns 0x00 (0000ms, 4476ms total)
T1A58 15723:409 JLINK_WriteReg(XPSR, 0x01000000)  returns 0x00 (0000ms, 4476ms total)
T1A58 15723:409 JLINK_WriteReg(MSP, 0x20001000)  returns 0x00 (0000ms, 4476ms total)
T1A58 15723:409 JLINK_WriteReg(PSP, 0x20001000)  returns 0x00 (0000ms, 4476ms total)
T1A58 15723:409 JLINK_WriteReg(CFBP, 0x00000000)  returns 0x00 (0000ms, 4476ms total)
T1A58 15723:409 JLINK_SetBPEx(Addr = 0x20000000, Type = 0xFFFFFFF2)  returns 0x00000003 (0001ms, 4477ms total)
T1A58 15723:410 JLINK_Go() -- CPU_ReadMem(4 bytes @ 0xE0001000) (0001ms, 4478ms total)
T1A58 15723:411 JLINK_IsHalted() -- CPU_ReadMem(2 bytes @ 0x20000000)  returns TRUE (0003ms, 4481ms total)
T1A58 15723:414 JLINK_ReadReg(R15 (PC))  returns 0x20000000 (0000ms, 4478ms total)
T1A58 15723:414 JLINK_ClrBPEx(BPHandle = 0x00000003)  returns 0x00 (0000ms, 4478ms total)
T1A58 15723:414 JLINK_ReadReg(R0)  returns 0x00000000 (0000ms, 4478ms total)
T1A58 15723:437 JLINK_WriteMem(0x20000000, 0x0164 Bytes, ...) - Data: 00 BE 0A E0 0D 78 2D 06 68 40 08 24 40 00 00 D3 ... -- CPU_WriteMem(356 bytes @ 0x20000000)  returns 0x164 (0002ms, 4480ms total)
T1A58 15723:439 JLINK_WriteReg(R0, 0x08000000)  returns 0x00 (0000ms, 4480ms total)
T1A58 15723:439 JLINK_WriteReg(R1, 0x00B71B00)  returns 0x00 (0000ms, 4480ms total)
T1A58 15723:439 JLINK_WriteReg(R2, 0x00000002)  returns 0x00 (0000ms, 4480ms total)
T1A58 15723:439 JLINK_WriteReg(R3, 0x00000000)  returns 0x00 (0000ms, 4480ms total)
T1A58 15723:439 JLINK_WriteReg(R4, 0x00000000)  returns 0x00 (0000ms, 4480ms total)
T1A58 15723:439 JLINK_WriteReg(R5, 0x00000000)  returns 0x00 (0000ms, 4480ms total)
T1A58 15723:439 JLINK_WriteReg(R6, 0x00000000)  returns 0x00 (0000ms, 4480ms total)
T1A58 15723:440 JLINK_WriteReg(R7, 0x00000000)  returns 0x00 (0000ms, 4480ms total)
T1A58 15723:440 JLINK_WriteReg(R8, 0x00000000)  returns 0x00 (0000ms, 4480ms total)
T1A58 15723:440 JLINK_WriteReg(R9, 0x20000160)  returns 0x00 (0000ms, 4480ms total)
T1A58 15723:440 JLINK_WriteReg(R10, 0x00000000)  returns 0x00 (0000ms, 4480ms total)
T1A58 15723:440 JLINK_WriteReg(R11, 0x00000000)  returns 0x00 (0000ms, 4480ms total)
T1A58 15723:440 JLINK_WriteReg(R12, 0x00000000)  returns 0x00 (0000ms, 4480ms total)
T1A58 15723:440 JLINK_WriteReg(R13 (SP), 0x20001000)  returns 0x00 (0000ms, 4480ms total)
T1A58 15723:440 JLINK_WriteReg(R14, 0x20000001)  returns 0x00 (0000ms, 4480ms total)
T1A58 15723:440 JLINK_WriteReg(R15 (PC), 0x20000038)  returns 0x00 (0000ms, 4480ms total)
T1A58 15723:440 JLINK_WriteReg(XPSR, 0x01000000)  returns 0x00 (0000ms, 4480ms total)
T1A58 15723:440 JLINK_WriteReg(MSP, 0x20001000)  returns 0x00 (0000ms, 4480ms total)
T1A58 15723:440 JLINK_WriteReg(PSP, 0x20001000)  returns 0x00 (0000ms, 4480ms total)
T1A58 15723:440 JLINK_WriteReg(CFBP, 0x00000000)  returns 0x00 (0000ms, 4480ms total)
T1A58 15723:440 JLINK_SetBPEx(Addr = 0x20000000, Type = 0xFFFFFFF2) -- CPU_ReadMem(2 bytes @ 0x20000000)  returns 0x00000004 (0001ms, 4481ms total)
T1A58 15723:441 JLINK_Go() -- CPU_WriteMem(2 bytes @ 0x20000000) -- CPU_ReadMem(4 bytes @ 0xE0001000) (0002ms, 4483ms total)
T1A58 15723:443 JLINK_IsHalted() -- CPU_ReadMem(2 bytes @ 0x20000000)  returns TRUE (0002ms, 4485ms total)
T1A58 15723:445 JLINK_ReadReg(R15 (PC))  returns 0x20000000 (0000ms, 4483ms total)
T1A58 15723:445 JLINK_ClrBPEx(BPHandle = 0x00000004)  returns 0x00 (0000ms, 4483ms total)
T1A58 15723:445 JLINK_ReadReg(R0)  returns 0x00000000 (0000ms, 4483ms total)
T1A58 15723:446 JLINK_WriteMem(0x20000164, 0x029C Bytes, ...) - Data: 28 3C 00 20 E9 01 00 08 71 1A 00 08 A1 15 00 08 ... -- CPU_WriteMem(668 bytes @ 0x20000164)  returns 0x29C (0003ms, 4486ms total)
T1A58 15723:450 JLINK_WriteMem(0x20000400, 0x0164 Bytes, ...) - Data: 19 DD 60 06 14 D5 BA F1 2B 0F 09 D0 BA F1 2D 0F ... -- CPU_WriteMem(356 bytes @ 0x20000400)  returns 0x164 (0002ms, 4489ms total)
T1A58 15723:452 JLINK_WriteReg(R0, 0x08000000)  returns 0x00 (0000ms, 4489ms total)
T1A58 15723:452 JLINK_WriteReg(R1, 0x00000400)  returns 0x00 (0000ms, 4489ms total)
T1A58 15723:452 JLINK_WriteReg(R2, 0x20000164)  returns 0x00 (0000ms, 4489ms total)
T1A58 15723:452 JLINK_WriteReg(R3, 0x00000000)  returns 0x00 (0000ms, 4489ms total)
T1A58 15723:452 JLINK_WriteReg(R4, 0x00000000)  returns 0x00 (0000ms, 4489ms total)
T1A58 15723:452 JLINK_WriteReg(R5, 0x00000000)  returns 0x00 (0000ms, 4489ms total)
T1A58 15723:452 JLINK_WriteReg(R6, 0x00000000)  returns 0x00 (0000ms, 4489ms total)
T1A58 15723:452 JLINK_WriteReg(R7, 0x00000000)  returns 0x00 (0000ms, 4489ms total)
T1A58 15723:452 JLINK_WriteReg(R8, 0x00000000)  returns 0x00 (0000ms, 4489ms total)
T1A58 15723:452 JLINK_WriteReg(R9, 0x20000160)  returns 0x00 (0000ms, 4489ms total)
T1A58 15723:453 JLINK_WriteReg(R10, 0x00000000)  returns 0x00 (0000ms, 4490ms total)
T1A58 15723:453 JLINK_WriteReg(R11, 0x00000000)  returns 0x00 (0000ms, 4490ms total)
T1A58 15723:453 JLINK_WriteReg(R12, 0x00000000)  returns 0x00 (0000ms, 4490ms total)
T1A58 15723:453 JLINK_WriteReg(R13 (SP), 0x20001000)  returns 0x00 (0000ms, 4490ms total)
T1A58 15723:453 JLINK_WriteReg(R14, 0x20000001)  returns 0x00 (0000ms, 4490ms total)
T1A58 15723:453 JLINK_WriteReg(R15 (PC), 0x200000F4)  returns 0x00 (0000ms, 4490ms total)
T1A58 15723:453 JLINK_WriteReg(XPSR, 0x01000000)  returns 0x00 (0000ms, 4490ms total)
T1A58 15723:453 JLINK_WriteReg(MSP, 0x20001000)  returns 0x00 (0000ms, 4490ms total)
T1A58 15723:453 JLINK_WriteReg(PSP, 0x20001000)  returns 0x00 (0000ms, 4490ms total)
T1A58 15723:453 JLINK_WriteReg(CFBP, 0x00000000)  returns 0x00 (0000ms, 4490ms total)
T1A58 15723:453 JLINK_SetBPEx(Addr = 0x20000000, Type = 0xFFFFFFF2)  returns 0x00000005 (0000ms, 4490ms total)
T1A58 15723:453 JLINK_Go() -- CPU_ReadMem(4 bytes @ 0xE0001000) (0002ms, 4492ms total)
T1A58 15723:455 JLINK_IsHalted()  returns FALSE (0000ms, 4492ms total)
T1A58 15723:470 JLINK_IsHalted()  returns FALSE (0000ms, 4492ms total)
T1A58 15723:472 JLINK_IsHalted()  returns FALSE (0000ms, 4492ms total)
T1A58 15723:474 JLINK_IsHalted()  returns FALSE (0000ms, 4492ms total)
T1A58 15723:476 JLINK_IsHalted()  returns FALSE (0000ms, 4492ms total)
T1A58 15723:478 JLINK_IsHalted()  returns FALSE (0000ms, 4492ms total)
T1A58 15723:480 JLINK_IsHalted()  returns FALSE (0000ms, 4492ms total)
T1A58 15723:482 JLINK_IsHalted()  returns FALSE (0000ms, 4492ms total)
T1A58 15723:484 JLINK_IsHalted()  returns FALSE (0000ms, 4492ms total)
T1A58 15723:486 JLINK_IsHalted() -- CPU_ReadMem(2 bytes @ 0x20000000)  returns TRUE (0002ms, 4494ms total)
T1A58 15723:488 JLINK_ReadReg(R15 (PC))  returns 0x20000000 (0001ms, 4493ms total)
T1A58 15723:489 JLINK_ClrBPEx(BPHandle = 0x00000005)  returns 0x00 (0000ms, 4493ms total)
T1A58 15723:489 JLINK_ReadReg(R0)  returns 0x00000000 (0000ms, 4493ms total)
T1A58 15723:491 JLINK_WriteMem(0x20000164, 0x029C Bytes, ...) - Data: 80 2A 02 D0 03 E0 00 20 10 BD 20 F0 01 00 00 29 ... -- CPU_WriteMem(668 bytes @ 0x20000164)  returns 0x29C (0003ms, 4496ms total)
T1A58 15723:494 JLINK_WriteMem(0x20000400, 0x0164 Bytes, ...) - Data: 42 EA 01 51 C2 08 40 07 11 43 70 47 00 20 01 46 ... -- CPU_WriteMem(356 bytes @ 0x20000400)  returns 0x164 (0002ms, 4498ms total)
T1A58 15723:496 JLINK_WriteReg(R0, 0x08000400)  returns 0x00 (0000ms, 4498ms total)
T1A58 15723:496 JLINK_WriteReg(R1, 0x00000400)  returns 0x00 (0000ms, 4498ms total)
T1A58 15723:496 JLINK_WriteReg(R2, 0x20000164)  returns 0x00 (0000ms, 4498ms total)
T1A58 15723:496 JLINK_WriteReg(R3, 0x00000000)  returns 0x00 (0000ms, 4498ms total)
T1A58 15723:496 JLINK_WriteReg(R4, 0x00000000)  returns 0x00 (0000ms, 4498ms total)
T1A58 15723:496 JLINK_WriteReg(R5, 0x00000000)  returns 0x00 (0000ms, 4498ms total)
T1A58 15723:496 JLINK_WriteReg(R6, 0x00000000)  returns 0x00 (0000ms, 4498ms total)
T1A58 15723:496 JLINK_WriteReg(R7, 0x00000000)  returns 0x00 (0000ms, 4498ms total)
T1A58 15723:496 JLINK_WriteReg(R8, 0x00000000)  returns 0x00 (0000ms, 4498ms total)
T1A58 15723:496 JLINK_WriteReg(R9, 0x20000160)  returns 0x00 (0000ms, 4498ms total)
T1A58 15723:496 JLINK_WriteReg(R10, 0x00000000)  returns 0x00 (0000ms, 4498ms total)
T1A58 15723:496 JLINK_WriteReg(R11, 0x00000000)  returns 0x00 (0000ms, 4498ms total)
T1A58 15723:496 JLINK_WriteReg(R12, 0x00000000)  returns 0x00 (0000ms, 4498ms total)
T1A58 15723:496 JLINK_WriteReg(R13 (SP), 0x20001000)  returns 0x00 (0000ms, 4498ms total)
T1A58 15723:496 JLINK_WriteReg(R14, 0x20000001)  returns 0x00 (0000ms, 4498ms total)
T1A58 15723:496 JLINK_WriteReg(R15 (PC), 0x200000F4)  returns 0x00 (0000ms, 4498ms total)
T1A58 15723:496 JLINK_WriteReg(XPSR, 0x01000000)  returns 0x00 (0000ms, 4498ms total)
T1A58 15723:497 JLINK_WriteReg(MSP, 0x20001000)  returns 0x00 (0000ms, 4498ms total)
T1A58 15723:497 JLINK_WriteReg(PSP, 0x20001000)  returns 0x00 (0000ms, 4498ms total)
T1A58 15723:497 JLINK_WriteReg(CFBP, 0x00000000)  returns 0x00 (0000ms, 4498ms total)
T1A58 15723:497 JLINK_SetBPEx(Addr = 0x20000000, Type = 0xFFFFFFF2)  returns 0x00000006 (0000ms, 4498ms total)
T1A58 15723:497 JLINK_Go() -- CPU_ReadMem(4 bytes @ 0xE0001000) (0001ms, 4499ms total)
T1A58 15723:498 JLINK_IsHalted()  returns FALSE (0001ms, 4500ms total)
T1A58 15723:509 JLINK_IsHalted()  returns FALSE (0000ms, 4499ms total)
T1A58 15723:511 JLINK_IsHalted()  returns FALSE (0000ms, 4499ms total)
T1A58 15723:513 JLINK_IsHalted()  returns FALSE (0000ms, 4499ms total)
T1A58 15723:519 JLINK_IsHalted()  returns FALSE (0000ms, 4499ms total)
T1A58 15723:521 JLINK_IsHalted()  returns FALSE (0000ms, 4499ms total)
T1A58 15723:523 JLINK_IsHalted()  returns FALSE (0000ms, 4499ms total)
T1A58 15723:525 JLINK_IsHalted()  returns FALSE (0000ms, 4499ms total)
T1A58 15723:527 JLINK_IsHalted()  returns FALSE (0000ms, 4499ms total)
T1A58 15723:529 JLINK_IsHalted()  returns FALSE (0000ms, 4499ms total)
T1A58 15723:531 JLINK_IsHalted() -- CPU_ReadMem(2 bytes @ 0x20000000)  returns TRUE (0002ms, 4501ms total)
T1A58 15723:533 JLINK_ReadReg(R15 (PC))  returns 0x20000000 (0000ms, 4499ms total)
T1A58 15723:533 JLINK_ClrBPEx(BPHandle = 0x00000006)  returns 0x00 (0000ms, 4499ms total)
T1A58 15723:533 JLINK_ReadReg(R0)  returns 0x00000000 (0000ms, 4499ms total)
T1A58 15723:535 JLINK_WriteMem(0x20000164, 0x029C Bytes, ...) - Data: 01 00 10 BC 70 47 10 B5 14 1E 73 F1 00 04 08 DA ... -- CPU_WriteMem(668 bytes @ 0x20000164)  returns 0x29C (0002ms, 4501ms total)
T1A58 15723:537 JLINK_WriteMem(0x20000400, 0x0164 Bytes, ...) - Data: 67 28 1B D0 69 28 21 D0 6E 28 16 D1 27 E0 70 28 ... -- CPU_WriteMem(356 bytes @ 0x20000400)  returns 0x164 (0002ms, 4503ms total)
T1A58 15723:539 JLINK_WriteReg(R0, 0x08000800)  returns 0x00 (0000ms, 4503ms total)
T1A58 15723:539 JLINK_WriteReg(R1, 0x00000400)  returns 0x00 (0000ms, 4503ms total)
T1A58 15723:539 JLINK_WriteReg(R2, 0x20000164)  returns 0x00 (0000ms, 4503ms total)
T1A58 15723:539 JLINK_WriteReg(R3, 0x00000000)  returns 0x00 (0000ms, 4503ms total)
T1A58 15723:539 JLINK_WriteReg(R4, 0x00000000)  returns 0x00 (0000ms, 4503ms total)
T1A58 15723:539 JLINK_WriteReg(R5, 0x00000000)  returns 0x00 (0000ms, 4503ms total)
T1A58 15723:539 JLINK_WriteReg(R6, 0x00000000)  returns 0x00 (0001ms, 4504ms total)
T1A58 15723:540 JLINK_WriteReg(R7, 0x00000000)  returns 0x00 (0000ms, 4504ms total)
T1A58 15723:540 JLINK_WriteReg(R8, 0x00000000)  returns 0x00 (0000ms, 4504ms total)
T1A58 15723:540 JLINK_WriteReg(R9, 0x20000160)  returns 0x00 (0000ms, 4504ms total)
T1A58 15723:540 JLINK_WriteReg(R10, 0x00000000)  returns 0x00 (0000ms, 4504ms total)
T1A58 15723:540 JLINK_WriteReg(R11, 0x00000000)  returns 0x00 (0000ms, 4504ms total)
T1A58 15723:540 JLINK_WriteReg(R12, 0x00000000)  returns 0x00 (0000ms, 4504ms total)
T1A58 15723:540 JLINK_WriteReg(R13 (SP), 0x20001000)  returns 0x00 (0000ms, 4504ms total)
T1A58 15723:540 JLINK_WriteReg(R14, 0x20000001)  returns 0x00 (0000ms, 4504ms total)
T1A58 15723:540 JLINK_WriteReg(R15 (PC), 0x200000F4)  returns 0x00 (0000ms, 4504ms total)
T1A58 15723:540 JLINK_WriteReg(XPSR, 0x01000000)  returns 0x00 (0000ms, 4504ms total)
T1A58 15723:540 JLINK_WriteReg(MSP, 0x20001000)  returns 0x00 (0000ms, 4504ms total)
T1A58 15723:540 JLINK_WriteReg(PSP, 0x20001000)  returns 0x00 (0000ms, 4504ms total)
T1A58 15723:540 JLINK_WriteReg(CFBP, 0x00000000)  returns 0x00 (0000ms, 4504ms total)
T1A58 15723:540 JLINK_SetBPEx(Addr = 0x20000000, Type = 0xFFFFFFF2)  returns 0x00000007 (0000ms, 4504ms total)
T1A58 15723:540 JLINK_Go() -- CPU_ReadMem(4 bytes @ 0xE0001000) (0002ms, 4506ms total)
T1A58 15723:542 JLINK_IsHalted()  returns FALSE (0000ms, 4506ms total)
T1A58 15723:545 JLINK_IsHalted()  returns FALSE (0000ms, 4506ms total)
T1A58 15723:547 JLINK_IsHalted()  returns FALSE (0000ms, 4506ms total)
T1A58 15723:549 JLINK_IsHalted()  returns FALSE (0000ms, 4506ms total)
T1A58 15723:551 JLINK_IsHalted()  returns FALSE (0000ms, 4506ms total)
T1A58 15723:553 JLINK_IsHalted()  returns FALSE (0000ms, 4506ms total)
T1A58 15723:555 JLINK_IsHalted()  returns FALSE (0000ms, 4506ms total)
T1A58 15723:557 JLINK_IsHalted()  returns FALSE (0000ms, 4506ms total)
T1A58 15723:559 JLINK_IsHalted()  returns FALSE (0000ms, 4506ms total)
T1A58 15723:561 JLINK_IsHalted()  returns FALSE (0000ms, 4506ms total)
T1A58 15723:563 JLINK_IsHalted()  returns FALSE (0000ms, 4506ms total)
T1A58 15723:565 JLINK_IsHalted()  returns FALSE (0000ms, 4506ms total)
T1A58 15723:567 JLINK_IsHalted()  returns FALSE (0000ms, 4506ms total)
T1A58 15723:569 JLINK_IsHalted()  returns FALSE (0000ms, 4506ms total)
T1A58 15723:571 JLINK_IsHalted()  returns FALSE (0000ms, 4506ms total)
T1A58 15723:573 JLINK_IsHalted()  returns FALSE (0000ms, 4506ms total)
T1A58 15723:575 JLINK_IsHalted() -- CPU_ReadMem(2 bytes @ 0x20000000)  returns TRUE (0002ms, 4508ms total)
T1A58 15723:577 JLINK_ReadReg(R15 (PC))  returns 0x20000000 (0000ms, 4506ms total)
T1A58 15723:577 JLINK_ClrBPEx(BPHandle = 0x00000007)  returns 0x00 (0000ms, 4506ms total)
T1A58 15723:577 JLINK_ReadReg(R0)  returns 0x00000000 (0000ms, 4506ms total)
T1A58 15723:579 JLINK_WriteMem(0x20000164, 0x029C Bytes, ...) - Data: 09 D0 00 20 51 46 51 F8 20 20 D2 43 41 F8 20 20 ... -- CPU_WriteMem(668 bytes @ 0x20000164)  returns 0x29C (0003ms, 4509ms total)
T1A58 15723:582 JLINK_WriteMem(0x20000400, 0x0164 Bytes, ...) - Data: 01 F0 10 F9 00 20 00 90 8D F8 04 00 8D F8 05 00 ... -- CPU_WriteMem(356 bytes @ 0x20000400)  returns 0x164 (0002ms, 4511ms total)
T1A58 15723:584 JLINK_WriteReg(R0, 0x08000C00)  returns 0x00 (0000ms, 4511ms total)
T1A58 15723:584 JLINK_WriteReg(R1, 0x00000400)  returns 0x00 (0000ms, 4511ms total)
T1A58 15723:584 JLINK_WriteReg(R2, 0x20000164)  returns 0x00 (0000ms, 4511ms total)
T1A58 15723:584 JLINK_WriteReg(R3, 0x00000000)  returns 0x00 (0000ms, 4511ms total)
T1A58 15723:584 JLINK_WriteReg(R4, 0x00000000)  returns 0x00 (0000ms, 4511ms total)
T1A58 15723:584 JLINK_WriteReg(R5, 0x00000000)  returns 0x00 (0000ms, 4511ms total)
T1A58 15723:584 JLINK_WriteReg(R6, 0x00000000)  returns 0x00 (0000ms, 4511ms total)
T1A58 15723:584 JLINK_WriteReg(R7, 0x00000000)  returns 0x00 (0000ms, 4511ms total)
T1A58 15723:584 JLINK_WriteReg(R8, 0x00000000)  returns 0x00 (0000ms, 4511ms total)
T1A58 15723:584 JLINK_WriteReg(R9, 0x20000160)  returns 0x00 (0000ms, 4511ms total)
T1A58 15723:584 JLINK_WriteReg(R10, 0x00000000)  returns 0x00 (0000ms, 4511ms total)
T1A58 15723:584 JLINK_WriteReg(R11, 0x00000000)  returns 0x00 (0000ms, 4511ms total)
T1A58 15723:584 JLINK_WriteReg(R12, 0x00000000)  returns 0x00 (0000ms, 4511ms total)
T1A58 15723:584 JLINK_WriteReg(R13 (SP), 0x20001000)  returns 0x00 (0000ms, 4511ms total)
T1A58 15723:584 JLINK_WriteReg(R14, 0x20000001)  returns 0x00 (0000ms, 4511ms total)
T1A58 15723:584 JLINK_WriteReg(R15 (PC), 0x200000F4)  returns 0x00 (0000ms, 4511ms total)
T1A58 15723:584 JLINK_WriteReg(XPSR, 0x01000000)  returns 0x00 (0001ms, 4512ms total)
T1A58 15723:585 JLINK_WriteReg(MSP, 0x20001000)  returns 0x00 (0000ms, 4512ms total)
T1A58 15723:585 JLINK_WriteReg(PSP, 0x20001000)  returns 0x00 (0000ms, 4512ms total)
T1A58 15723:585 JLINK_WriteReg(CFBP, 0x00000000)  returns 0x00 (0000ms, 4512ms total)
T1A58 15723:585 JLINK_SetBPEx(Addr = 0x20000000, Type = 0xFFFFFFF2)  returns 0x00000008 (0000ms, 4512ms total)
T1A58 15723:585 JLINK_Go() -- CPU_ReadMem(4 bytes @ 0xE0001000) (0001ms, 4513ms total)
T1A58 15723:586 JLINK_IsHalted()  returns FALSE (0001ms, 4514ms total)
T1A58 15723:589 JLINK_IsHalted()  returns FALSE (0000ms, 4513ms total)
T1A58 15723:591 JLINK_IsHalted()  returns FALSE (0000ms, 4513ms total)
T1A58 15723:593 JLINK_IsHalted()  returns FALSE (0000ms, 4513ms total)
T1A58 15723:595 JLINK_IsHalted()  returns FALSE (0000ms, 4513ms total)
T1A58 15723:597 JLINK_IsHalted()  returns FALSE (0000ms, 4513ms total)
T1A58 15723:599 JLINK_IsHalted()  returns FALSE (0000ms, 4513ms total)
T1A58 15723:601 JLINK_IsHalted()  returns FALSE (0000ms, 4513ms total)
T1A58 15723:603 JLINK_IsHalted()  returns FALSE (0000ms, 4513ms total)
T1A58 15723:605 JLINK_IsHalted()  returns FALSE (0000ms, 4513ms total)
T1A58 15723:607 JLINK_IsHalted()  returns FALSE (0000ms, 4513ms total)
T1A58 15723:609 JLINK_IsHalted()  returns FALSE (0000ms, 4513ms total)
T1A58 15723:611 JLINK_IsHalted()  returns FALSE (0000ms, 4513ms total)
T1A58 15723:613 JLINK_IsHalted()  returns FALSE (0000ms, 4513ms total)
T1A58 15723:614 JLINK_IsHalted()  returns FALSE (0000ms, 4513ms total)
T1A58 15723:616 JLINK_IsHalted()  returns FALSE (0000ms, 4513ms total)
T1A58 15723:618 JLINK_IsHalted() -- CPU_ReadMem(2 bytes @ 0x20000000)  returns TRUE (0002ms, 4515ms total)
T1A58 15723:620 JLINK_ReadReg(R15 (PC))  returns 0x20000000 (0000ms, 4513ms total)
T1A58 15723:620 JLINK_ClrBPEx(BPHandle = 0x00000008)  returns 0x00 (0000ms, 4513ms total)
T1A58 15723:620 JLINK_ReadReg(R0)  returns 0x00000000 (0000ms, 4513ms total)
T1A58 15723:622 JLINK_WriteMem(0x20000164, 0x029C Bytes, ...) - Data: 8D F8 00 00 03 20 8D F8 01 00 00 20 8D F8 02 00 ... -- CPU_WriteMem(668 bytes @ 0x20000164)  returns 0x29C (0003ms, 4516ms total)
T1A58 15723:625 JLINK_WriteMem(0x20000400, 0x0164 Bytes, ...) - Data: 70 47 00 00 0C 02 00 20 F0 B5 86 B0 04 46 00 25 ... -- CPU_WriteMem(356 bytes @ 0x20000400)  returns 0x164 (0001ms, 4517ms total)
T1A58 15723:626 JLINK_WriteReg(R0, 0x08001000)  returns 0x00 (0000ms, 4517ms total)
T1A58 15723:627 JLINK_WriteReg(R1, 0x00000400)  returns 0x00 (0000ms, 4517ms total)
T1A58 15723:627 JLINK_WriteReg(R2, 0x20000164)  returns 0x00 (0000ms, 4517ms total)
T1A58 15723:627 JLINK_WriteReg(R3, 0x00000000)  returns 0x00 (0000ms, 4517ms total)
T1A58 15723:627 JLINK_WriteReg(R4, 0x00000000)  returns 0x00 (0000ms, 4517ms total)
T1A58 15723:627 JLINK_WriteReg(R5, 0x00000000)  returns 0x00 (0000ms, 4517ms total)
T1A58 15723:627 JLINK_WriteReg(R6, 0x00000000)  returns 0x00 (0000ms, 4517ms total)
T1A58 15723:627 JLINK_WriteReg(R7, 0x00000000)  returns 0x00 (0000ms, 4517ms total)
T1A58 15723:627 JLINK_WriteReg(R8, 0x00000000)  returns 0x00 (0000ms, 4517ms total)
T1A58 15723:627 JLINK_WriteReg(R9, 0x20000160)  returns 0x00 (0000ms, 4517ms total)
T1A58 15723:627 JLINK_WriteReg(R10, 0x00000000)  returns 0x00 (0000ms, 4517ms total)
T1A58 15723:627 JLINK_WriteReg(R11, 0x00000000)  returns 0x00 (0000ms, 4517ms total)
T1A58 15723:627 JLINK_WriteReg(R12, 0x00000000)  returns 0x00 (0000ms, 4517ms total)
T1A58 15723:627 JLINK_WriteReg(R13 (SP), 0x20001000)  returns 0x00 (0000ms, 4517ms total)
T1A58 15723:627 JLINK_WriteReg(R14, 0x20000001)  returns 0x00 (0000ms, 4517ms total)
T1A58 15723:627 JLINK_WriteReg(R15 (PC), 0x200000F4)  returns 0x00 (0000ms, 4517ms total)
T1A58 15723:627 JLINK_WriteReg(XPSR, 0x01000000)  returns 0x00 (0000ms, 4517ms total)
T1A58 15723:627 JLINK_WriteReg(MSP, 0x20001000)  returns 0x00 (0000ms, 4517ms total)
T1A58 15723:627 JLINK_WriteReg(PSP, 0x20001000)  returns 0x00 (0000ms, 4517ms total)
T1A58 15723:628 JLINK_WriteReg(CFBP, 0x00000000)  returns 0x00 (0000ms, 4518ms total)
T1A58 15723:628 JLINK_SetBPEx(Addr = 0x20000000, Type = 0xFFFFFFF2)  returns 0x00000009 (0000ms, 4518ms total)
T1A58 15723:628 JLINK_Go() -- CPU_ReadMem(4 bytes @ 0xE0001000) (0001ms, 4519ms total)
T1A58 15723:629 JLINK_IsHalted()  returns FALSE (0001ms, 4520ms total)
T1A58 15723:635 JLINK_IsHalted()  returns FALSE (0000ms, 4519ms total)
T1A58 15723:637 JLINK_IsHalted()  returns FALSE (0000ms, 4519ms total)
T1A58 15723:639 JLINK_IsHalted()  returns FALSE (0000ms, 4519ms total)
T1A58 15723:641 JLINK_IsHalted()  returns FALSE (0000ms, 4519ms total)
T1A58 15723:643 JLINK_IsHalted()  returns FALSE (0000ms, 4519ms total)
T1A58 15723:645 JLINK_IsHalted()  returns FALSE (0000ms, 4519ms total)
T1A58 15723:647 JLINK_IsHalted()  returns FALSE (0000ms, 4519ms total)
T1A58 15723:649 JLINK_IsHalted()  returns FALSE (0000ms, 4519ms total)
T1A58 15723:651 JLINK_IsHalted()  returns FALSE (0000ms, 4519ms total)
T1A58 15723:653 JLINK_IsHalted()  returns FALSE (0000ms, 4519ms total)
T1A58 15723:655 JLINK_IsHalted()  returns FALSE (0000ms, 4519ms total)
T1A58 15723:657 JLINK_IsHalted()  returns FALSE (0000ms, 4519ms total)
T1A58 15723:659 JLINK_IsHalted()  returns FALSE (0000ms, 4519ms total)
T1A58 15723:661 JLINK_IsHalted() -- CPU_ReadMem(2 bytes @ 0x20000000)  returns TRUE (0002ms, 4521ms total)
T1A58 15723:663 JLINK_ReadReg(R15 (PC))  returns 0x20000000 (0000ms, 4519ms total)
T1A58 15723:663 JLINK_ClrBPEx(BPHandle = 0x00000009)  returns 0x00 (0000ms, 4519ms total)
T1A58 15723:663 JLINK_ReadReg(R0)  returns 0x00000000 (0000ms, 4519ms total)
T1A58 15723:665 JLINK_WriteMem(0x20000164, 0x029C Bytes, ...) - Data: 91 F8 03 C0 BC F1 48 0F 05 D1 4F F0 01 0C 0C FA ... -- CPU_WriteMem(668 bytes @ 0x20000164)  returns 0x29C (0003ms, 4522ms total)
T1A58 15723:668 JLINK_WriteMem(0x20000400, 0x0164 Bytes, ...) - Data: 03 20 8D F8 12 00 04 A9 19 48 FF F7 6B FE 08 20 ... -- CPU_WriteMem(356 bytes @ 0x20000400)  returns 0x164 (0001ms, 4523ms total)
T1A58 15723:670 JLINK_WriteReg(R0, 0x08001400)  returns 0x00 (0000ms, 4523ms total)
T1A58 15723:670 JLINK_WriteReg(R1, 0x00000400)  returns 0x00 (0000ms, 4523ms total)
T1A58 15723:670 JLINK_WriteReg(R2, 0x20000164)  returns 0x00 (0000ms, 4523ms total)
T1A58 15723:670 JLINK_WriteReg(R3, 0x00000000)  returns 0x00 (0000ms, 4523ms total)
T1A58 15723:670 JLINK_WriteReg(R4, 0x00000000)  returns 0x00 (0000ms, 4523ms total)
T1A58 15723:670 JLINK_WriteReg(R5, 0x00000000)  returns 0x00 (0000ms, 4523ms total)
T1A58 15723:670 JLINK_WriteReg(R6, 0x00000000)  returns 0x00 (0000ms, 4523ms total)
T1A58 15723:670 JLINK_WriteReg(R7, 0x00000000)  returns 0x00 (0000ms, 4523ms total)
T1A58 15723:670 JLINK_WriteReg(R8, 0x00000000)  returns 0x00 (0000ms, 4523ms total)
T1A58 15723:670 JLINK_WriteReg(R9, 0x20000160)  returns 0x00 (0000ms, 4523ms total)
T1A58 15723:670 JLINK_WriteReg(R10, 0x00000000)  returns 0x00 (0000ms, 4523ms total)
T1A58 15723:670 JLINK_WriteReg(R11, 0x00000000)  returns 0x00 (0000ms, 4523ms total)
T1A58 15723:670 JLINK_WriteReg(R12, 0x00000000)  returns 0x00 (0000ms, 4523ms total)
T1A58 15723:670 JLINK_WriteReg(R13 (SP), 0x20001000)  returns 0x00 (0000ms, 4523ms total)
T1A58 15723:670 JLINK_WriteReg(R14, 0x20000001)  returns 0x00 (0000ms, 4523ms total)
T1A58 15723:670 JLINK_WriteReg(R15 (PC), 0x200000F4)  returns 0x00 (0001ms, 4524ms total)
T1A58 15723:671 JLINK_WriteReg(XPSR, 0x01000000)  returns 0x00 (0000ms, 4524ms total)
T1A58 15723:671 JLINK_WriteReg(MSP, 0x20001000)  returns 0x00 (0000ms, 4524ms total)
T1A58 15723:671 JLINK_WriteReg(PSP, 0x20001000)  returns 0x00 (0000ms, 4524ms total)
T1A58 15723:671 JLINK_WriteReg(CFBP, 0x00000000)  returns 0x00 (0000ms, 4524ms total)
T1A58 15723:671 JLINK_SetBPEx(Addr = 0x20000000, Type = 0xFFFFFFF2)  returns 0x0000000A (0000ms, 4524ms total)
T1A58 15723:671 JLINK_Go() -- CPU_ReadMem(4 bytes @ 0xE0001000) (0001ms, 4525ms total)
T1A58 15723:673 JLINK_IsHalted()  returns FALSE (0000ms, 4525ms total)
T1A58 15723:675 JLINK_IsHalted()  returns FALSE (0000ms, 4525ms total)
T1A58 15723:677 JLINK_IsHalted()  returns FALSE (0000ms, 4525ms total)
T1A58 15723:679 JLINK_IsHalted()  returns FALSE (0000ms, 4525ms total)
T1A58 15723:681 JLINK_IsHalted()  returns FALSE (0000ms, 4525ms total)
T1A58 15723:683 JLINK_IsHalted()  returns FALSE (0000ms, 4525ms total)
T1A58 15723:685 JLINK_IsHalted()  returns FALSE (0000ms, 4525ms total)
T1A58 15723:687 JLINK_IsHalted()  returns FALSE (0000ms, 4525ms total)
T1A58 15723:689 JLINK_IsHalted()  returns FALSE (0000ms, 4525ms total)
T1A58 15723:691 JLINK_IsHalted()  returns FALSE (0000ms, 4525ms total)
T1A58 15723:693 JLINK_IsHalted()  returns FALSE (0000ms, 4525ms total)
T1A58 15723:695 JLINK_IsHalted()  returns FALSE (0000ms, 4525ms total)
T1A58 15723:697 JLINK_IsHalted()  returns FALSE (0000ms, 4525ms total)
T1A58 15723:699 JLINK_IsHalted()  returns FALSE (0000ms, 4525ms total)
T1A58 15723:701 JLINK_IsHalted()  returns FALSE (0000ms, 4525ms total)
T1A58 15723:703 JLINK_IsHalted()  returns FALSE (0000ms, 4525ms total)
T1A58 15723:705 JLINK_IsHalted() -- CPU_ReadMem(2 bytes @ 0x20000000)  returns TRUE (0002ms, 4527ms total)
T1A58 15723:707 JLINK_ReadReg(R15 (PC))  returns 0x20000000 (0000ms, 4525ms total)
T1A58 15723:707 JLINK_ClrBPEx(BPHandle = 0x0000000A)  returns 0x00 (0000ms, 4525ms total)
T1A58 15723:707 JLINK_ReadReg(R0)  returns 0x00000000 (0000ms, 4525ms total)
T1A58 15723:709 JLINK_WriteMem(0x20000164, 0x029C Bytes, ...) - Data: FC E7 00 00 08 0C 01 40 04 48 00 68 00 F4 00 50 ... -- CPU_WriteMem(668 bytes @ 0x20000164)  returns 0x29C (0003ms, 4528ms total)
T1A58 15723:712 JLINK_WriteMem(0x20000400, 0x0164 Bytes, ...) - Data: 04 03 CA 40 44 78 04 FA 03 F1 84 78 14 40 21 43 ... -- CPU_WriteMem(356 bytes @ 0x20000400)  returns 0x164 (0002ms, 4530ms total)
T1A58 15723:714 JLINK_WriteReg(R0, 0x08001800)  returns 0x00 (0000ms, 4530ms total)
T1A58 15723:714 JLINK_WriteReg(R1, 0x00000400)  returns 0x00 (0000ms, 4530ms total)
T1A58 15723:714 JLINK_WriteReg(R2, 0x20000164)  returns 0x00 (0000ms, 4530ms total)
T1A58 15723:714 JLINK_WriteReg(R3, 0x00000000)  returns 0x00 (0000ms, 4530ms total)
T1A58 15723:714 JLINK_WriteReg(R4, 0x00000000)  returns 0x00 (0000ms, 4530ms total)
T1A58 15723:714 JLINK_WriteReg(R5, 0x00000000)  returns 0x00 (0000ms, 4530ms total)
T1A58 15723:714 JLINK_WriteReg(R6, 0x00000000)  returns 0x00 (0000ms, 4530ms total)
T1A58 15723:714 JLINK_WriteReg(R7, 0x00000000)  returns 0x00 (0000ms, 4530ms total)
T1A58 15723:714 JLINK_WriteReg(R8, 0x00000000)  returns 0x00 (0000ms, 4530ms total)
T1A58 15723:714 JLINK_WriteReg(R9, 0x20000160)  returns 0x00 (0000ms, 4530ms total)
T1A58 15723:714 JLINK_WriteReg(R10, 0x00000000)  returns 0x00 (0000ms, 4530ms total)
T1A58 15723:714 JLINK_WriteReg(R11, 0x00000000)  returns 0x00 (0000ms, 4530ms total)
T1A58 15723:714 JLINK_WriteReg(R12, 0x00000000)  returns 0x00 (0000ms, 4530ms total)
T1A58 15723:714 JLINK_WriteReg(R13 (SP), 0x20001000)  returns 0x00 (0000ms, 4530ms total)
T1A58 15723:714 JLINK_WriteReg(R14, 0x20000001)  returns 0x00 (0000ms, 4530ms total)
T1A58 15723:714 JLINK_WriteReg(R15 (PC), 0x200000F4)  returns 0x00 (0000ms, 4530ms total)
T1A58 15723:714 JLINK_WriteReg(XPSR, 0x01000000)  returns 0x00 (0001ms, 4531ms total)
T1A58 15723:715 JLINK_WriteReg(MSP, 0x20001000)  returns 0x00 (0000ms, 4531ms total)
T1A58 15723:715 JLINK_WriteReg(PSP, 0x20001000)  returns 0x00 (0000ms, 4531ms total)
T1A58 15723:715 JLINK_WriteReg(CFBP, 0x00000000)  returns 0x00 (0000ms, 4531ms total)
T1A58 15723:715 JLINK_SetBPEx(Addr = 0x20000000, Type = 0xFFFFFFF2)  returns 0x0000000B (0000ms, 4531ms total)
T1A58 15723:715 JLINK_Go() -- CPU_ReadMem(4 bytes @ 0xE0001000) (0001ms, 4532ms total)
T1A58 15723:716 JLINK_IsHalted()  returns FALSE (0001ms, 4533ms total)
T1A58 15723:719 JLINK_IsHalted()  returns FALSE (0000ms, 4532ms total)
T1A58 15723:721 JLINK_IsHalted()  returns FALSE (0000ms, 4532ms total)
T1A58 15723:723 JLINK_IsHalted()  returns FALSE (0000ms, 4532ms total)
T1A58 15723:725 JLINK_IsHalted()  returns FALSE (0000ms, 4532ms total)
T1A58 15723:727 JLINK_IsHalted()  returns FALSE (0000ms, 4532ms total)
T1A58 15723:729 JLINK_IsHalted()  returns FALSE (0000ms, 4532ms total)
T1A58 15723:731 JLINK_IsHalted()  returns FALSE (0000ms, 4532ms total)
T1A58 15723:733 JLINK_IsHalted()  returns FALSE (0000ms, 4532ms total)
T1A58 15723:735 JLINK_IsHalted()  returns FALSE (0000ms, 4532ms total)
T1A58 15723:737 JLINK_IsHalted()  returns FALSE (0000ms, 4532ms total)
T1A58 15723:743 JLINK_IsHalted()  returns FALSE (0000ms, 4532ms total)
T1A58 15723:745 JLINK_IsHalted()  returns FALSE (0000ms, 4532ms total)
T1A58 15723:747 JLINK_IsHalted()  returns FALSE (0000ms, 4532ms total)
T1A58 15723:749 JLINK_IsHalted() -- CPU_ReadMem(2 bytes @ 0x20000000)  returns TRUE (0002ms, 4534ms total)
T1A58 15723:751 JLINK_ReadReg(R15 (PC))  returns 0x20000000 (0000ms, 4532ms total)
T1A58 15723:751 JLINK_ClrBPEx(BPHandle = 0x0000000B)  returns 0x00 (0000ms, 4532ms total)
T1A58 15723:751 JLINK_ReadReg(R0)  returns 0x00000000 (0001ms, 4533ms total)
T1A58 15723:753 JLINK_WriteMem(0x20000164, 0x029C Bytes, ...) - Data: 00 20 00 F0 DF FC 0F 20 1E 49 08 70 34 E0 24 A2 ... -- CPU_WriteMem(668 bytes @ 0x20000164)  returns 0x29C (0003ms, 4536ms total)
T1A58 15723:756 JLINK_WriteMem(0x20000400, 0x0164 Bytes, ...) - Data: 25 6C 64 00 70 B5 05 46 0C 46 08 2D 04 D1 07 2C ... -- CPU_WriteMem(356 bytes @ 0x20000400)  returns 0x164 (0002ms, 4538ms total)
T1A58 15723:758 JLINK_WriteReg(R0, 0x08001C00)  returns 0x00 (0000ms, 4538ms total)
T1A58 15723:758 JLINK_WriteReg(R1, 0x00000400)  returns 0x00 (0000ms, 4538ms total)
T1A58 15723:758 JLINK_WriteReg(R2, 0x20000164)  returns 0x00 (0000ms, 4538ms total)
T1A58 15723:758 JLINK_WriteReg(R3, 0x00000000)  returns 0x00 (0000ms, 4538ms total)
T1A58 15723:758 JLINK_WriteReg(R4, 0x00000000)  returns 0x00 (0000ms, 4538ms total)
T1A58 15723:758 JLINK_WriteReg(R5, 0x00000000)  returns 0x00 (0000ms, 4538ms total)
T1A58 15723:758 JLINK_WriteReg(R6, 0x00000000)  returns 0x00 (0001ms, 4539ms total)
T1A58 15723:759 JLINK_WriteReg(R7, 0x00000000)  returns 0x00 (0000ms, 4539ms total)
T1A58 15723:759 JLINK_WriteReg(R8, 0x00000000)  returns 0x00 (0000ms, 4539ms total)
T1A58 15723:759 JLINK_WriteReg(R9, 0x20000160)  returns 0x00 (0000ms, 4539ms total)
T1A58 15723:759 JLINK_WriteReg(R10, 0x00000000)  returns 0x00 (0000ms, 4539ms total)
T1A58 15723:759 JLINK_WriteReg(R11, 0x00000000)  returns 0x00 (0000ms, 4539ms total)
T1A58 15723:759 JLINK_WriteReg(R12, 0x00000000)  returns 0x00 (0000ms, 4539ms total)
T1A58 15723:759 JLINK_WriteReg(R13 (SP), 0x20001000)  returns 0x00 (0000ms, 4539ms total)
T1A58 15723:759 JLINK_WriteReg(R14, 0x20000001)  returns 0x00 (0000ms, 4539ms total)
T1A58 15723:759 JLINK_WriteReg(R15 (PC), 0x200000F4)  returns 0x00 (0000ms, 4539ms total)
T1A58 15723:759 JLINK_WriteReg(XPSR, 0x01000000)  returns 0x00 (0000ms, 4539ms total)
T1A58 15723:759 JLINK_WriteReg(MSP, 0x20001000)  returns 0x00 (0000ms, 4539ms total)
T1A58 15723:759 JLINK_WriteReg(PSP, 0x20001000)  returns 0x00 (0000ms, 4539ms total)
T1A58 15723:759 JLINK_WriteReg(CFBP, 0x00000000)  returns 0x00 (0000ms, 4539ms total)
T1A58 15723:759 JLINK_SetBPEx(Addr = 0x20000000, Type = 0xFFFFFFF2)  returns 0x0000000C (0000ms, 4539ms total)
T1A58 15723:759 JLINK_Go() -- CPU_ReadMem(4 bytes @ 0xE0001000) (0002ms, 4541ms total)
T1A58 15723:761 JLINK_IsHalted()  returns FALSE (0000ms, 4541ms total)
T1A58 15723:764 JLINK_IsHalted()  returns FALSE (0000ms, 4541ms total)
T1A58 15723:766 JLINK_IsHalted()  returns FALSE (0000ms, 4541ms total)
T1A58 15723:768 JLINK_IsHalted()  returns FALSE (0000ms, 4541ms total)
T1A58 15723:770 JLINK_IsHalted()  returns FALSE (0000ms, 4541ms total)
T1A58 15723:772 JLINK_IsHalted()  returns FALSE (0000ms, 4541ms total)
T1A58 15723:774 JLINK_IsHalted()  returns FALSE (0000ms, 4541ms total)
T1A58 15723:776 JLINK_IsHalted()  returns FALSE (0000ms, 4541ms total)
T1A58 15723:778 JLINK_IsHalted()  returns FALSE (0000ms, 4541ms total)
T1A58 15723:780 JLINK_IsHalted()  returns FALSE (0000ms, 4541ms total)
T1A58 15723:782 JLINK_IsHalted()  returns FALSE (0000ms, 4541ms total)
T1A58 15723:784 JLINK_IsHalted()  returns FALSE (0000ms, 4541ms total)
T1A58 15723:786 JLINK_IsHalted()  returns FALSE (0000ms, 4541ms total)
T1A58 15723:788 JLINK_IsHalted()  returns FALSE (0000ms, 4541ms total)
T1A58 15723:790 JLINK_IsHalted()  returns FALSE (0000ms, 4541ms total)
T1A58 15723:792 JLINK_IsHalted() -- CPU_ReadMem(2 bytes @ 0x20000000)  returns TRUE (0002ms, 4543ms total)
T1A58 15723:794 JLINK_ReadReg(R15 (PC))  returns 0x20000000 (0000ms, 4541ms total)
T1A58 15723:794 JLINK_ClrBPEx(BPHandle = 0x0000000C)  returns 0x00 (0000ms, 4541ms total)
T1A58 15723:794 JLINK_ReadReg(R0)  returns 0x00000000 (0000ms, 4541ms total)
T1A58 15723:796 JLINK_WriteMem(0x20000164, 0x029C Bytes, ...) - Data: 27 2E 62 7A 51 46 48 46 FF F7 7C FD 2D E0 04 F1 ... -- CPU_WriteMem(668 bytes @ 0x20000164)  returns 0x29C (0002ms, 4543ms total)
T1A58 15723:799 JLINK_WriteMem(0x20000400, 0x0164 Bytes, ...) - Data: F0 41 04 46 0D 46 16 46 1F 46 4F F0 00 08 EE 20 ... -- CPU_WriteMem(356 bytes @ 0x20000400)  returns 0x164 (0001ms, 4545ms total)
T1A58 15723:801 JLINK_WriteReg(R0, 0x08002000)  returns 0x00 (0000ms, 4545ms total)
T1A58 15723:801 JLINK_WriteReg(R1, 0x00000400)  returns 0x00 (0000ms, 4545ms total)
T1A58 15723:801 JLINK_WriteReg(R2, 0x20000164)  returns 0x00 (0000ms, 4545ms total)
T1A58 15723:801 JLINK_WriteReg(R3, 0x00000000)  returns 0x00 (0000ms, 4545ms total)
T1A58 15723:801 JLINK_WriteReg(R4, 0x00000000)  returns 0x00 (0000ms, 4545ms total)
T1A58 15723:801 JLINK_WriteReg(R5, 0x00000000)  returns 0x00 (0000ms, 4545ms total)
T1A58 15723:801 JLINK_WriteReg(R6, 0x00000000)  returns 0x00 (0000ms, 4545ms total)
T1A58 15723:801 JLINK_WriteReg(R7, 0x00000000)  returns 0x00 (0000ms, 4545ms total)
T1A58 15723:801 JLINK_WriteReg(R8, 0x00000000)  returns 0x00 (0000ms, 4545ms total)
T1A58 15723:801 JLINK_WriteReg(R9, 0x20000160)  returns 0x00 (0000ms, 4545ms total)
T1A58 15723:801 JLINK_WriteReg(R10, 0x00000000)  returns 0x00 (0000ms, 4545ms total)
T1A58 15723:801 JLINK_WriteReg(R11, 0x00000000)  returns 0x00 (0000ms, 4545ms total)
